
T1EA8 000:035 SEGGER J-Link V6.16j Log File (0001ms, 0024ms total)
T1EA8 000:035 DLL Compiled: Jul 24 2017 18:42:23 (0001ms, 0024ms total)
T1EA8 000:035 Logging started @ 2017-08-18 16:52 (0001ms, 0024ms total)
T1EA8 000:036 JLINK_SetWarnOutHandler(...) (0000ms, 0024ms total)
T1EA8 000:036 JLINK_OpenEx(...)
Firmware: J-Link STLink V2 compiled Jun 26 2017 10:34:41
Hardware: V1.00
S/N: 774340649
TELNET listener socket opened on port 19021WEBSRV 
Webserver running on local port 19080  returns O.K. (0007ms, 0031ms total)
T1EA8 000:043 JLINK_SetErrorOutHandler(...) (0000ms, 0031ms total)
T1EA8 000:043 JLINK_ExecCommand("ProjectFile = "C:\Users\jugnu\Documents\MDKv5-ARM\myRover\JLinkSettings.ini"", ...). C:\Program Files (x86)\SEGGER\JLink_V616j\JLinkDevices.xml evaluated successfully.  returns 0x00 (0078ms, 0109ms total)
T1EA8 000:122 JLINK_ExecCommand("Device = STM32F407VGTx", ...). Device "STM32F407VG" selected.  returns 0x00 (0001ms, 0111ms total)
T1EA8 000:123 JLINK_ExecCommand("DisableConnectionTimeout", ...).   returns 0x01 (0000ms, 0111ms total)
T1EA8 000:123 JLINK_GetHardwareVersion()  returns 0x2710 (0000ms, 0111ms total)
T1EA8 000:123 JLINK_GetDLLVersion()  returns 61610 (0000ms, 0111ms total)
T1EA8 000:123 JLINK_GetFirmwareString(...) (0000ms, 0111ms total)
T1EA8 000:123 JLINK_GetDLLVersion()  returns 61610 (0000ms, 0111ms total)
T1EA8 000:123 JLINK_GetCompileDateTime() (0000ms, 0111ms total)
T1EA8 000:123 JLINK_GetFirmwareString(...) (0000ms, 0111ms total)
T1EA8 000:123 JLINK_GetHardwareVersion()  returns 0x2710 (0000ms, 0111ms total)
T1EA8 000:123 JLINK_TIF_Select(JLINKARM_TIF_SWD)  returns 0x00 (0001ms, 0112ms total)
T1EA8 000:124 JLINK_SetSpeed(50000) (0000ms, 0112ms total)
T1EA8 000:124 JLINK_GetId() >0x10B TIF>Found SW-DP with ID 0x4BA01477 >0x0D TIF> >0x28 TIF> >0x0D TIF> >0x28 TIF> >0x0D TIF> >0x28 TIF> >0x0D TIF> >0x28 TIF> >0x0D TIF> >0x21 TIF> >0x0D TIF> >0x28 TIF> >0x0D TIF> >0x28 TIF> >0x0D TIF> >0x28 TIF> >0x0D TIF> >0x21 TIF> >0x0D TIF> >0x21 TIF> >0x0D TIF> >0x28 TIF> >0x0D TIF> >0x21 TIF> >0x0D TIF> >0x21 TIF> >0x0D TIF> >0x28 TIF> >0x0D TIF> >0x21 TIF> >0x0D TIF> >0x21 TIF> >0x0D TIF> >0x28 TIF> >0x0D TIF> >0x21 TIF> >0x0D TIF> >0x21 TIF> >0x0D TIF> >0x28 TIF>
 >0x0D TIF> >0x21 TIF> >0x0D TIF> >0x21 TIF> >0x0D TIF> >0x28 TIF> >0x0D TIF> >0x21 TIF> >0x0D TIF> >0x21 TIF> >0x10B TIF>Found SW-DP with ID 0x4BA01477 >0x0D TIF> >0x28 TIF> >0x0D TIF> >0x28 TIF> >0x0D TIF> >0x28 TIF> >0x0D TIF> >0x28 TIF> >0x0D TIF> >0x21 TIF> >0x0D TIF> >0x28 TIF>Scanning APs, stopping at first AHB-AP found. >0x0D TIF> >0x28 TIF> >0x0D TIF> >0x21 TIF> >0x0D TIF> >0x21 TIF>AP[0] IDR: 0x24770011 (AHB-AP) >0x0D TIF> >0x28 TIF> >0x0D TIF> >0x21 TIF> >0x0D TIF> >0x21 TIF>
AHB-AP ROM: 0xE00FF000 (Base addr. of first ROM table) >0x0D TIF> >0x28 TIF> >0x0D TIF> >0x28 TIF> >0x0D TIF> >0x28 TIF> >0x0D TIF> >0x21 TIF> >0x0D TIF> >0x21 TIF> >0x0D TIF> >0x28 TIF> >0x0D TIF> >0x21 TIF> >0x0D TIF> >0x21 TIF>CPUID reg: 0x410FC241. Implementer code: 0x41 (ARM)Found Cortex-M4 r0p1, Little endian. -- CPU_ReadMem(4 bytes @ 0xE000EDF0) -- CPU_WriteMem(4 bytes @ 0xE000EDF0) -- CPU_ReadMem(4 bytes @ 0xE0002000)FPUnit: 6 code (BP) slots and 2 literal slots
 -- CPU_ReadMem(4 bytes @ 0xE000EDFC) -- CPU_WriteMem(4 bytes @ 0xE000EDFC) -- CPU_ReadMem(4 bytes @ 0xE0001000) -- CPU_WriteMem(4 bytes @ 0xE0001000) -- CPU_ReadMem(4 bytes @ 0xE000ED88) -- CPU_WriteMem(4 bytes @ 0xE000ED88) -- CPU_ReadMem(4 bytes @ 0xE000ED88) -- CPU_WriteMem(4 bytes @ 0xE000ED88)CoreSight components:ROMTbl[0] @ E00FF000 -- CPU_ReadMem(16 bytes @ 0xE00FF000) -- CPU_ReadMem(16 bytes @ 0xE000EFF0) -- CPU_ReadMem(16 bytes @ 0xE000EFE0)
ROMTbl[0][0]: E000E000, CID: B105E00D, PID: 000BB00C SCS -- CPU_ReadMem(16 bytes @ 0xE0001FF0) -- CPU_ReadMem(16 bytes @ 0xE0001FE0)ROMTbl[0][1]: E0001000, CID: B105E00D, PID: 003BB002 DWT -- CPU_ReadMem(16 bytes @ 0xE0002FF0) -- CPU_ReadMem(16 bytes @ 0xE0002FE0)ROMTbl[0][2]: E0002000, CID: B105E00D, PID: 002BB003 FPB -- CPU_ReadMem(16 bytes @ 0xE0000FF0) -- CPU_ReadMem(16 bytes @ 0xE0000FE0)ROMTbl[0][3]: E0000000, CID: B105E00D, PID: 003BB001 ITM -- CPU_ReadMem(16 bytes @ 0xE00FF010)
 -- CPU_ReadMem(16 bytes @ 0xE0040FF0) -- CPU_ReadMem(16 bytes @ 0xE0040FE0)ROMTbl[0][4]: E0040000, CID: B105900D, PID: 000BB9A1 TPIU -- CPU_ReadMem(16 bytes @ 0xE0041FF0) -- CPU_ReadMem(16 bytes @ 0xE0041FE0)ROMTbl[0][5]: E0041000, CID: B105900D, PID: 000BB925 ETM >0x0D TIF> >0x21 TIF>  returns 0x2BA01477 (0026ms, 0138ms total)
T1EA8 000:150 JLINK_GetDLLVersion()  returns 61610 (0000ms, 0138ms total)
T1EA8 000:150 JLINK_CORE_GetFound()  returns 0xE0000FF (0000ms, 0138ms total)
T1EA8 000:150 JLINK_GetDebugInfo(0x100 = JLINKARM_ROM_TABLE_ADDR_INDEX) -- Value=0xE00FF000  returns 0x00 (0000ms, 0138ms total)
T1EA8 000:150 JLINK_GetDebugInfo(0x100 = JLINKARM_ROM_TABLE_ADDR_INDEX) -- Value=0xE00FF000  returns 0x00 (0000ms, 0138ms total)
T1EA8 000:150 JLINK_GetDebugInfo(0x101 = JLINKARM_DEBUG_INFO_ETM_ADDR_INDEX) -- Value=0xE0041000  returns 0x00 (0000ms, 0138ms total)
T1EA8 000:150 JLINK_GetDebugInfo(0x102 = JLINKARM_DEBUG_INFO_MTB_ADDR_INDEX) -- Value=0x00000000  returns 0x00 (0000ms, 0138ms total)
T1EA8 000:150 JLINK_GetDebugInfo(0x103 = JLINKARM_DEBUG_INFO_TPIU_ADDR_INDEX) -- Value=0xE0040000  returns 0x00 (0000ms, 0138ms total)
T1EA8 000:150 JLINK_GetDebugInfo(0x104 = JLINKARM_DEBUG_INFO_ITM_ADDR_INDEX) -- Value=0xE0000000  returns 0x00 (0000ms, 0138ms total)
T1EA8 000:150 JLINK_GetDebugInfo(0x105 = JLINKARM_DEBUG_INFO_DWT_ADDR_INDEX) -- Value=0xE0001000  returns 0x00 (0000ms, 0138ms total)
T1EA8 000:150 JLINK_GetDebugInfo(0x106 = JLINKARM_DEBUG_INFO_FPB_ADDR_INDEX) -- Value=0xE0002000  returns 0x00 (0000ms, 0138ms total)
T1EA8 000:150 JLINK_GetDebugInfo(0x107 = JLINKARM_DEBUG_INFO_NVIC_ADDR_INDEX) -- Value=0xE000E000  returns 0x00 (0000ms, 0138ms total)
T1EA8 000:150 JLINK_GetDebugInfo(0x10C = JLINKARM_DEBUG_INFO_DBG_ADDR_INDEX) -- Value=0xE000EDF0  returns 0x00 (0000ms, 0138ms total)
T1EA8 000:150 JLINK_ReadMemU32(0xE000EF40, 0x0001 Items, ...) -- CPU_ReadMem(4 bytes @ 0xE000EF40) - Data: 21 00 11 10  returns 0x01 (0000ms, 0138ms total)
T1EA8 000:150 JLINK_ReadMemU32(0xE000EF44, 0x0001 Items, ...) -- CPU_ReadMem(4 bytes @ 0xE000EF44) - Data: 11 00 00 11  returns 0x01 (0001ms, 0139ms total)
T1EA8 000:151 JLINK_ReadMemU32(0xE000ED00, 0x0001 Items, ...) -- CPU_ReadMem(4 bytes @ 0xE000ED00) - Data: 41 C2 0F 41  returns 0x01 (0000ms, 0139ms total)
T1EA8 000:151 JLINK_SetResetType(JLINKARM_CM3_RESET_TYPE_NORMAL)  returns JLINKARM_CM3_RESET_TYPE_NORMAL (0000ms, 0139ms total)
T1EA8 000:151 JLINK_Reset() -- CPU is running -- CPU_WriteMem(4 bytes @ 0xE000EDF0) -- CPU is running -- CPU_WriteMem(4 bytes @ 0xE000EDFC)Reset: Halt core after reset via DEMCR.VC_CORERESET. >0x35 TIF>Reset: Reset device via AIRCR.SYSRESETREQ. -- CPU is running -- CPU_WriteMem(4 bytes @ 0xE000ED0C) >0x0D TIF> >0x28 TIF> -- CPU_ReadMem(4 bytes @ 0xE000EDF0) -- CPU_ReadMem(4 bytes @ 0xE000EDF0) -- CPU is running -- CPU_WriteMem(4 bytes @ 0xE000EDF0) -- CPU is running -- CPU_WriteMem(4 bytes @ 0xE000EDFC)
 -- CPU_ReadMem(4 bytes @ 0xE000EDF0) -- CPU_WriteMem(4 bytes @ 0xE0002000) -- CPU_ReadMem(4 bytes @ 0xE000EDFC) -- CPU_ReadMem(4 bytes @ 0xE0001000) (0064ms, 0203ms total)
T1EA8 000:215 JLINK_ReadReg(R15 (PC))  returns 0x08000300 (0000ms, 0203ms total)
T1EA8 000:215 JLINK_ReadReg(XPSR)  returns 0x01000000 (0001ms, 0204ms total)
T1EA8 000:216 JLINK_Halt()  returns 0x00 (0000ms, 0204ms total)
T1EA8 000:216 JLINK_IsHalted()  returns TRUE (0000ms, 0204ms total)
T1EA8 000:216 JLINK_ReadMemU32(0xE000EDF0, 0x0001 Items, ...) -- CPU_ReadMem(4 bytes @ 0xE000EDF0) - Data: 03 00 03 00  returns 0x01 (0000ms, 0204ms total)
T1EA8 000:216 JLINK_WriteU32(0xE000EDF0, 0xA05F0003) -- CPU_WriteMem(4 bytes @ 0xE000EDF0)  returns 0x00 (0000ms, 0204ms total)
T1EA8 000:216 JLINK_WriteU32(0xE000EDFC, 0x01000000) -- CPU_WriteMem(4 bytes @ 0xE000EDFC)  returns 0x00 (0000ms, 0204ms total)
T1EA8 000:216 JLINK_GetHWStatus(...)  returns 0x00 (0001ms, 0205ms total)
T1EA8 000:217 JLINK_GetNumBPUnits(Type = 0xFFFFFF00)  returns 0x06 (0000ms, 0205ms total)
T1EA8 000:217 JLINK_GetNumBPUnits(Type = 0xF0)  returns 0x2000 (0000ms, 0205ms total)
T1EA8 000:217 JLINK_GetNumWPUnits()  returns 0x04 (0000ms, 0205ms total)
T1EA8 000:217 JLINK_GetSpeed()  returns 0xFA0 (0000ms, 0205ms total)
T1EA8 000:217 JLINK_ReadMemU32(0xE000E004, 0x0001 Items, ...) -- CPU_ReadMem(4 bytes @ 0xE000E004) - Data: 02 00 00 00  returns 0x01 (0000ms, 0205ms total)
T1EA8 000:217 JLINK_ReadMemU32(0xE000E004, 0x0001 Items, ...) -- CPU_ReadMem(4 bytes @ 0xE000E004) - Data: 02 00 00 00  returns 0x01 (0000ms, 0205ms total)
T1EA8 000:217 JLINK_WriteMem(0xE0001000, 0x001C Bytes, ...) - Data: 01 00 00 00 00 00 00 00 00 00 00 00 00 00 00 00 ... -- CPU_WriteMem(28 bytes @ 0xE0001000)  returns 0x1C (0001ms, 0206ms total)
T1EA8 000:218 JLINK_ReadMem (0xE0001000, 0x001C Bytes, ...) -- CPU_ReadMem(28 bytes @ 0xE0001000) - Data: 01 00 00 40 00 00 00 00 00 00 00 00 00 00 00 00 ...  returns 0x00 (0001ms, 0207ms total)
T1EA8 000:219 JLINK_ReadReg(R15 (PC))  returns 0x08000300 (0000ms, 0207ms total)
T1EA8 000:219 JLINK_ReadReg(XPSR)  returns 0x01000000 (0000ms, 0207ms total)
T1EA8 000:219 JLINK_WriteU32(0xE0041FB0, 0xC5ACCE55) -- CPU_WriteMem(4 bytes @ 0xE0041FB0)  returns 0x00 (0000ms, 0207ms total)
T1EA8 000:219 JLINK_ReadMemU32(0xE0041000, 0x0001 Items, ...) -- CPU_ReadMem(4 bytes @ 0xE0041000) - Data: 01 00 00 00  returns 0x01 (0000ms, 0207ms total)
T1EA8 000:219 JLINK_WriteU32(0xE0041000, 0x00000000) -- CPU_WriteMem(4 bytes @ 0xE0041000)  returns 0x00 (0001ms, 0208ms total)
T1EA8 000:221 JLINK_SWO_Control(JLINKARM_SWO_CMD_GET_SPEED_INFO, ...)  returns 0x00 (0000ms, 0208ms total)
T1EA8 000:221 JLINK_SWO_Control(JLINKARM_SWO_CMD_STOP, ...)  returns 0x00 (0000ms, 0208ms total)
T1EA8 000:221 JLINK_SWO_Control(JLINKARM_SWO_CMD_START, ...) -- UART -- 4421052bps -- CPU_ReadMem(4 bytes @ 0xE0042004)  returns 0x00 (0001ms, 0209ms total)
T1EA8 000:222 JLINK_WriteU32(0xE0040004, 0x00000001) -- CPU_WriteMem(4 bytes @ 0xE0040004)  returns 0x00 (0000ms, 0209ms total)
T1EA8 000:222 JLINK_WriteU32(0xE0040010, 0x00000025)  returns 0x00 (0000ms, 0209ms total)
T1EA8 000:222 JLINK_WriteU32(0xE00400F0, 0x00000002)  returns 0x00 (0000ms, 0209ms total)
T1EA8 000:222 JLINK_WriteU32(0xE0040304, 0x00000000)  returns 0x00 (0001ms, 0210ms total)
T1EA8 000:223 JLINK_WriteU32(0xE0000FB0, 0xC5ACCE55) -- CPU_WriteMem(4 bytes @ 0xE0000FB0)  returns 0x00 (0000ms, 0210ms total)
T1EA8 000:223 JLINK_WriteU32(0xE0000E80, 0x0001000D)  returns 0x00 (0000ms, 0210ms total)
T1EA8 000:223 JLINK_WriteU32(0xE0000E00, 0xFFFFFFFF)  returns 0x00 (0000ms, 0210ms total)
T1EA8 000:223 JLINK_WriteU32(0xE0000E40, 0x00000008)  returns 0x00 (0000ms, 0210ms total)
T1EA8 000:223 JLINK_WriteU32(0xE0001000, 0x00010A1F)  returns 0x00 (0000ms, 0210ms total)
T1EA8 000:326 JLINK_SetResetType(JLINKARM_CM3_RESET_TYPE_NORMAL)  returns JLINKARM_CM3_RESET_TYPE_NORMAL (0000ms, 0210ms total)
T1EA8 000:326 JLINK_Reset() -- CPU_WriteMem(4 bytes @ 0xE0000E00) -- CPU_WriteMem(4 bytes @ 0xE0000E40) -- CPU_WriteMem(4 bytes @ 0xE0000E80) -- CPU_WriteMem(4 bytes @ 0xE0001000) -- CPU_WriteMem(4 bytes @ 0xE0040010) -- CPU_WriteMem(4 bytes @ 0xE00400F0) -- CPU_WriteMem(4 bytes @ 0xE0040304) -- CPU_WriteMem(4 bytes @ 0xE000EDF0) -- CPU_WriteMem(4 bytes @ 0xE000EDFC)Reset: Halt core after reset via DEMCR.VC_CORERESET. >0x35 TIF>Reset: Reset device via AIRCR.SYSRESETREQ.
 -- CPU_WriteMem(4 bytes @ 0xE000ED0C) >0x0D TIF> >0x28 TIF> -- CPU_ReadMem(4 bytes @ 0xE000EDF0) -- CPU_ReadMem(4 bytes @ 0xE000EDF0) -- CPU_WriteMem(4 bytes @ 0xE000EDF0) -- CPU_WriteMem(4 bytes @ 0xE000EDFC) -- CPU_ReadMem(4 bytes @ 0xE000EDF0) -- CPU_WriteMem(4 bytes @ 0xE0002000) -- CPU_ReadMem(4 bytes @ 0xE000EDFC) -- CPU_ReadMem(4 bytes @ 0xE0001000) -- CPU_ReadMem(4 bytes @ 0xE0042004) (0066ms, 0276ms total)
T1EA8 000:392 JLINK_WriteU32(0xE000EDFC, 0x01000000) -- CPU_WriteMem(4 bytes @ 0xE000EDFC)  returns 0x00 (0000ms, 0276ms total)
T1EA8 000:392 JLINK_ReadReg(R15 (PC))  returns 0x08000300 (0000ms, 0276ms total)
T1EA8 000:392 JLINK_ReadReg(XPSR)  returns 0x01000000 (0000ms, 0276ms total)
T1EA8 000:396 JLINK_ReadMem (0x08000200, 0x003C Bytes, ...) -- CPU_ReadMem(64 bytes @ 0x08000200) -- Updating C cache (64 bytes @ 0x08000200) -- Read from C cache (60 bytes @ 0x08000200) - Data: AB 80 78 29 00 F0 E4 80 00 20 70 47 1F B5 06 F0 ...  returns 0x00 (0001ms, 0277ms total)
T1EA8 000:397 JLINK_ReadMem (0x0800023C, 0x003C Bytes, ...) -- CPU_ReadMem(64 bytes @ 0x08000240) -- Updating C cache (64 bytes @ 0x08000240) -- Read from C cache (60 bytes @ 0x0800023C) - Data: FF F7 F0 FF 03 BC 00 F0 4D FF 00 00 2A 4B 19 68 ...  returns 0x00 (0001ms, 0278ms total)
T1EA8 000:398 JLINK_ReadMem (0x08000278, 0x003C Bytes, ...) -- CPU_ReadMem(64 bytes @ 0x08000280) -- Updating C cache (64 bytes @ 0x08000280) -- Read from C cache (60 bytes @ 0x08000278) - Data: 4F 8F BF F3 6F 8F 00 DF 00 BF 00 BF 08 ED 00 E0 ...  returns 0x00 (0001ms, 0279ms total)
T1EA8 000:399 JLINK_ReadMem (0x080002B4, 0x003C Bytes, ...) -- CPU_ReadMem(64 bytes @ 0x080002C0) -- Updating C cache (64 bytes @ 0x080002C0) -- Read from C cache (60 bytes @ 0x080002B4) - Data: F0 4F 10 60 08 B4 4F F0 A0 00 80 F3 11 88 BF F3 ...  returns 0x00 (0001ms, 0280ms total)
T1EA8 000:400 JLINK_ReadMem (0x080002F0, 0x003C Bytes, ...) -- CPU_ReadMem(64 bytes @ 0x08000300) -- Updating C cache (64 bytes @ 0x08000300) -- Read from C cache (60 bytes @ 0x080002F0) - Data: 6F 8F 70 47 C0 00 00 20 EF F3 05 80 70 47 00 00 ...  returns 0x00 (0001ms, 0281ms total)
T1EA8 000:457 JLINK_WriteU32(0xE0001008, 0x00000000)  returns 0x00 (0000ms, 0281ms total)
T1EA8 000:457 JLINK_WriteU32(0xE000100C, 0x00000000)  returns 0x00 (0000ms, 0281ms total)
T1EA8 000:457 JLINK_WriteU32(0xE0001010, 0x00000000)  returns 0x00 (0000ms, 0281ms total)
T1EA8 000:457 JLINK_WriteU32(0xE0001014, 0x00000000)  returns 0x00 (0000ms, 0281ms total)
T1EA8 000:457 JLINK_WriteU32(0xE0001018, 0x00000000)  returns 0x00 (0000ms, 0281ms total)
T1EA8 000:477 JLINK_ReadMem (0x40012000, 0x004C Bytes, ...) -- CPU_ReadMem(76 bytes @ 0x40012000) - Data: 00 00 00 00 00 00 00 00 00 00 00 00 00 00 00 00 ...  returns 0x00 (0001ms, 0282ms total)
T1EA8 000:478 JLINK_ReadMem (0x4001204C, 0x0004 Bytes, ...) -- CPU_ReadMem(4 bytes @ 0x4001204C) - Data: 00 00 00 00  returns 0x00 (0000ms, 0282ms total)
T1EA8 000:495 JLINK_ReadMem (0xE0042000, 0x000C Bytes, ...) -- CPU_WriteMem(4 bytes @ 0xE0001008) -- CPU_WriteMem(4 bytes @ 0xE000100C) -- CPU_WriteMem(4 bytes @ 0xE0001010) -- CPU_WriteMem(4 bytes @ 0xE0001014) -- CPU_WriteMem(4 bytes @ 0xE0001018) -- CPU_ReadMem(12 bytes @ 0xE0042000) - Data: 13 64 01 10 27 00 00 00 00 18 00 00  returns 0x00 (0001ms, 0283ms total)
T1EA8 000:496 JLINK_ReadMem (0xE004200C, 0x0004 Bytes, ...) -- CPU_ReadMem(4 bytes @ 0xE004200C) - Data: 00 00 00 00  returns 0x00 (0001ms, 0284ms total)
T1EA8 000:514 JLINK_ReadMem (0x40013C00, 0x0014 Bytes, ...) -- CPU_ReadMem(20 bytes @ 0x40013C00) - Data: 00 00 00 00 00 00 00 00 00 00 00 00 00 00 00 00 ...  returns 0x00 (0000ms, 0284ms total)
T1EA8 000:514 JLINK_ReadMem (0x40013C14, 0x0004 Bytes, ...) -- CPU_ReadMem(4 bytes @ 0x40013C14) - Data: 00 00 00 00  returns 0x00 (0000ms, 0284ms total)
T1EA8 000:532 JLINK_ReadMem (0x40020000, 0x0014 Bytes, ...) -- CPU_ReadMem(20 bytes @ 0x40020000) - Data: 00 00 00 A8 00 00 00 A8 00 00 00 A8 00 00 00 A8 ...  returns 0x00 (0001ms, 0285ms total)
T1EA8 000:533 JLINK_ReadMem (0x40020014, 0x0004 Bytes, ...) -- CPU_ReadMem(4 bytes @ 0x40020014) - Data: 00 00 00 A8  returns 0x00 (0000ms, 0285ms total)
T1EA8 000:533 JLINK_ReadMem (0x4002001C, 0x0008 Bytes, ...) -- CPU_ReadMem(8 bytes @ 0x4002001C) - Data: 00 00 00 A8 00 00 00 A8  returns 0x00 (0001ms, 0286ms total)
T1EA8 000:534 JLINK_ReadMem (0x40020024, 0x0004 Bytes, ...) -- CPU_ReadMem(4 bytes @ 0x40020024) - Data: 00 00 00 A8  returns 0x00 (0000ms, 0286ms total)
T1EA8 000:551 JLINK_ReadMem (0xE000E004, 0x0004 Bytes, ...) -- CPU_ReadMem(4 bytes @ 0xE000E004) - Data: 02 00 00 00  returns 0x00 (0000ms, 0286ms total)
T1EA8 000:551 JLINK_ReadMem (0xE000E100, 0x0008 Bytes, ...) -- CPU_ReadMem(8 bytes @ 0xE000E100) - Data: 00 00 00 00 00 00 00 00  returns 0x00 (0001ms, 0287ms total)
T1EA8 000:552 JLINK_ReadMem (0xE000E108, 0x0004 Bytes, ...) -- CPU_ReadMem(4 bytes @ 0xE000E108) - Data: 00 00 00 00  returns 0x00 (0000ms, 0287ms total)
T1EA8 000:552 JLINK_ReadMem (0xE000E180, 0x0008 Bytes, ...) -- CPU_ReadMem(8 bytes @ 0xE000E180) - Data: 00 00 00 00 00 00 00 00  returns 0x00 (0000ms, 0287ms total)
T1EA8 000:552 JLINK_ReadMem (0xE000E188, 0x0004 Bytes, ...) -- CPU_ReadMem(4 bytes @ 0xE000E188) - Data: 00 00 00 00  returns 0x00 (0001ms, 0288ms total)
T1EA8 000:553 JLINK_ReadMem (0xE000E200, 0x0008 Bytes, ...) -- CPU_ReadMem(8 bytes @ 0xE000E200) - Data: 00 00 00 00 00 00 00 00  returns 0x00 (0000ms, 0288ms total)
T1EA8 000:553 JLINK_ReadMem (0xE000E208, 0x0004 Bytes, ...) -- CPU_ReadMem(4 bytes @ 0xE000E208) - Data: 00 00 00 00  returns 0x00 (0000ms, 0288ms total)
T1EA8 000:554 JLINK_ReadMem (0xE000E280, 0x0008 Bytes, ...) -- CPU_ReadMem(8 bytes @ 0xE000E280) - Data: 00 00 00 00 00 00 00 00  returns 0x00 (0000ms, 0288ms total)
T1EA8 000:554 JLINK_ReadMem (0xE000E288, 0x0004 Bytes, ...) -- CPU_ReadMem(4 bytes @ 0xE000E288) - Data: 00 00 00 00  returns 0x00 (0000ms, 0288ms total)
T1EA8 000:554 JLINK_ReadMem (0xE000E300, 0x0008 Bytes, ...) -- CPU_ReadMem(8 bytes @ 0xE000E300) - Data: 00 00 00 00 00 00 00 00  returns 0x00 (0001ms, 0289ms total)
T1EA8 000:555 JLINK_ReadMem (0xE000E308, 0x0004 Bytes, ...) -- CPU_ReadMem(4 bytes @ 0xE000E308) - Data: 00 00 00 00  returns 0x00 (0000ms, 0289ms total)
T1EA8 000:555 JLINK_ReadMem (0xE000E400, 0x004C Bytes, ...) -- CPU_ReadMem(76 bytes @ 0xE000E400) - Data: 00 00 00 00 00 00 00 00 00 00 00 00 00 00 00 00 ...  returns 0x00 (0001ms, 0290ms total)
T1EA8 000:556 JLINK_ReadMem (0xE000E44C, 0x0004 Bytes, ...) -- CPU_ReadMem(4 bytes @ 0xE000E44C) - Data: 00 00 00 00  returns 0x00 (0000ms, 0290ms total)
T1EA8 000:573 JLINK_ReadMem (0x40023800, 0x0018 Bytes, ...) -- CPU_ReadMem(24 bytes @ 0x40023800) - Data: 83 89 00 00 10 30 00 24 00 00 00 00 00 00 00 00 ...  returns 0x00 (0001ms, 0291ms total)
T1EA8 000:574 JLINK_ReadMem (0x40023818, 0x0004 Bytes, ...) -- CPU_ReadMem(4 bytes @ 0x40023818) - Data: 00 00 00 00  returns 0x00 (0000ms, 0291ms total)
T1EA8 000:574 JLINK_ReadMem (0x40023820, 0x0004 Bytes, ...) -- CPU_ReadMem(4 bytes @ 0x40023820) - Data: 00 00 00 00  returns 0x00 (0000ms, 0291ms total)
T1EA8 000:574 JLINK_ReadMem (0x40023824, 0x0004 Bytes, ...) -- CPU_ReadMem(4 bytes @ 0x40023824) - Data: 00 00 00 00  returns 0x00 (0001ms, 0292ms total)
T1EA8 000:575 JLINK_ReadMem (0x40023830, 0x0008 Bytes, ...) -- CPU_ReadMem(8 bytes @ 0x40023830) - Data: 00 00 10 00 00 00 00 00  returns 0x00 (0000ms, 0292ms total)
T1EA8 000:575 JLINK_ReadMem (0x40023838, 0x0004 Bytes, ...) -- CPU_ReadMem(4 bytes @ 0x40023838) - Data: 00 00 00 00  returns 0x00 (0001ms, 0293ms total)
T1EA8 000:576 JLINK_ReadMem (0x40023840, 0x0004 Bytes, ...) -- CPU_ReadMem(4 bytes @ 0x40023840) - Data: 00 00 00 00  returns 0x00 (0000ms, 0293ms total)
T1EA8 000:576 JLINK_ReadMem (0x40023844, 0x0004 Bytes, ...) -- CPU_ReadMem(4 bytes @ 0x40023844) - Data: 00 00 00 00  returns 0x00 (0000ms, 0293ms total)
T1EA8 000:576 JLINK_ReadMem (0x40023850, 0x0008 Bytes, ...) -- CPU_ReadMem(8 bytes @ 0x40023850) - Data: FF 91 67 7E F1 00 00 00  returns 0x00 (0001ms, 0294ms total)
T1EA8 000:577 JLINK_ReadMem (0x40023858, 0x0004 Bytes, ...) -- CPU_ReadMem(4 bytes @ 0x40023858) - Data: 01 00 00 00  returns 0x00 (0000ms, 0294ms total)
T1EA8 000:577 JLINK_ReadMem (0x40023860, 0x0004 Bytes, ...) -- CPU_ReadMem(4 bytes @ 0x40023860) - Data: FF C9 FE 36  returns 0x00 (0001ms, 0295ms total)
T1EA8 000:578 JLINK_ReadMem (0x40023864, 0x0004 Bytes, ...) -- CPU_ReadMem(4 bytes @ 0x40023864) - Data: 33 5F 07 00  returns 0x00 (0000ms, 0295ms total)
T1EA8 000:578 JLINK_ReadMem (0x40023870, 0x0004 Bytes, ...) -- CPU_ReadMem(4 bytes @ 0x40023870) - Data: 00 00 00 00  returns 0x00 (0000ms, 0295ms total)
T1EA8 000:578 JLINK_ReadMem (0x40023874, 0x0004 Bytes, ...) -- CPU_ReadMem(4 bytes @ 0x40023874) - Data: 00 00 00 14  returns 0x00 (0001ms, 0296ms total)
T1EA8 000:579 JLINK_ReadMem (0x40023880, 0x0004 Bytes, ...) -- CPU_ReadMem(4 bytes @ 0x40023880) - Data: 00 00 00 00  returns 0x00 (0000ms, 0296ms total)
T1EA8 000:579 JLINK_ReadMem (0x40023884, 0x0004 Bytes, ...) -- CPU_ReadMem(4 bytes @ 0x40023884) - Data: 00 30 00 20  returns 0x00 (0000ms, 0296ms total)
T1EA8 001:419 JLINK_ReadMem (0x20000000, 0x0004 Bytes, ...) -- CPU_ReadMem(64 bytes @ 0x20000000) -- Updating C cache (64 bytes @ 0x20000000) -- Read from C cache (4 bytes @ 0x20000000) - Data: FE E7 0A E0  returns 0x00 (0001ms, 0297ms total)
T1C88 001:436 JLINK_SetBPEx(Addr = 0x08001890, Type = 0xFFFFFFF2)  returns 0x00000001 (0000ms, 0297ms total)
T1C88 001:436 JLINK_ReadMemU32(0xE0001004, 0x0001 Items, ...) - Data: 00 00 00 00  returns 0x01 (0000ms, 0297ms total)
T1C88 001:436 JLINK_WriteU32(0xE0001004, 0x000003FF)  returns 0x00 (0000ms, 0297ms total)
T1C88 001:436 JLINK_WriteU32(0xE0001000, 0x00410A1F)  returns 0x00 (0000ms, 0297ms total)
T1C88 001:436 JLINK_WriteU32(0xE0000E80, 0x0001000F)  returns 0x00 (0000ms, 0297ms total)
T1C88 001:436 JLINK_SWO_Control(JLINKARM_SWO_CMD_GET_NUM_BYTES, ...)  returns 0x00 (0000ms, 0297ms total)
T1C88 001:436 JLINK_Go() -- CPU_WriteMem(4 bytes @ 0xE0002000) -- CPU_WriteMem(4 bytes @ 0xE0001000) -- CPU_ReadMem(4 bytes @ 0xE0001000) -- CPU_WriteMem(4 bytes @ 0xE0000E80) -- CPU_WriteMem(4 bytes @ 0xE0002008) -- CPU_WriteMem(4 bytes @ 0xE000200C) -- CPU_WriteMem(4 bytes @ 0xE0002010) -- CPU_WriteMem(4 bytes @ 0xE0002014) -- CPU_WriteMem(4 bytes @ 0xE0002018) -- CPU_WriteMem(4 bytes @ 0xE000201C) -- CPU_WriteMem(4 bytes @ 0xE0001004) (0004ms, 0301ms total)
T1C88 001:440 JLINK_WriteU32(0xE0001000, 0x00010A1F) -- CPU is running -- CPU_WriteMem(4 bytes @ 0xE0001000)  returns 0x00 (0000ms, 0301ms total)
T1C88 001:541 JLINK_SWO_Read(..., Offset = 0x00, NumBytes = 0x400000) - Data:  NumBytesRead = 0x00 (0000ms, 0301ms total)
T1C88 001:543 JLINK_SWO_Control(JLINKARM_SWO_CMD_FLUSH, ...)  returns 0x00 (0000ms, 0301ms total)
T1C88 001:543 JLINK_IsHalted()  returns TRUE (0003ms, 0304ms total)
T1C88 001:546 JLINK_Halt()  returns 0x00 (0000ms, 0301ms total)
T1C88 001:546 JLINK_IsHalted()  returns TRUE (0000ms, 0301ms total)
T1C88 001:546 JLINK_IsHalted()  returns TRUE (0000ms, 0301ms total)
T1C88 001:546 JLINK_IsHalted()  returns TRUE (0000ms, 0301ms total)
T1C88 001:546 JLINK_ReadReg(R15 (PC))  returns 0x08001890 (0000ms, 0301ms total)
T1C88 001:546 JLINK_ReadReg(XPSR)  returns 0x61000000 (0000ms, 0301ms total)
T1C88 001:546 JLINK_SWO_Read(..., Offset = 0x00, NumBytes = 0x400000) - Data:  NumBytesRead = 0x00 (0000ms, 0301ms total)
T1C88 001:548 JLINK_SWO_Control(JLINKARM_SWO_CMD_FLUSH, ...)  returns 0x00 (0000ms, 0301ms total)
T1C88 001:548 JLINK_ClrBPEx(BPHandle = 0x00000001)  returns 0x00 (0000ms, 0301ms total)
T1C88 001:548 JLINK_ReadMemU32(0xE000ED30, 0x0001 Items, ...) -- CPU_ReadMem(4 bytes @ 0xE000ED30) - Data: 02 00 00 00  returns 0x01 (0000ms, 0301ms total)
T1C88 001:548 JLINK_ReadMemU32(0xE0001028, 0x0001 Items, ...) -- CPU_ReadMem(4 bytes @ 0xE0001028) - Data: 00 00 00 00  returns 0x01 (0000ms, 0301ms total)
T1C88 001:548 JLINK_ReadMemU32(0xE0001038, 0x0001 Items, ...) -- CPU_ReadMem(4 bytes @ 0xE0001038) - Data: 00 02 00 00  returns 0x01 (0001ms, 0302ms total)
T1C88 001:549 JLINK_ReadMemU32(0xE0001048, 0x0001 Items, ...) -- CPU_ReadMem(4 bytes @ 0xE0001048) - Data: 00 00 00 00  returns 0x01 (0000ms, 0302ms total)
T1C88 001:549 JLINK_ReadMemU32(0xE0001058, 0x0001 Items, ...) -- CPU_ReadMem(4 bytes @ 0xE0001058) - Data: 00 00 00 00  returns 0x01 (0000ms, 0302ms total)
T1C88 001:549 JLINK_ReadReg(R0)  returns 0x20002BF8 (0000ms, 0302ms total)
T1C88 001:549 JLINK_ReadReg(R1)  returns 0x20002DF8 (0000ms, 0302ms total)
T1C88 001:549 JLINK_ReadReg(R2)  returns 0x20002DF8 (0000ms, 0302ms total)
T1C88 001:549 JLINK_ReadReg(R3)  returns 0x20002DF8 (0000ms, 0302ms total)
T1C88 001:549 JLINK_ReadReg(R4)  returns 0x00000000 (0000ms, 0302ms total)
T1C88 001:549 JLINK_ReadReg(R5)  returns 0x20002B98 (0001ms, 0303ms total)
T1C88 001:550 JLINK_ReadReg(R6)  returns 0x00000000 (0000ms, 0303ms total)
T1C88 001:550 JLINK_ReadReg(R7)  returns 0x00000000 (0000ms, 0303ms total)
T1C88 001:550 JLINK_ReadReg(R8)  returns 0x00000000 (0000ms, 0303ms total)
T1C88 001:550 JLINK_ReadReg(R9)  returns 0x00000000 (0000ms, 0303ms total)
T1C88 001:550 JLINK_ReadReg(R10)  returns 0x08006F50 (0000ms, 0303ms total)
T1C88 001:550 JLINK_ReadReg(R11)  returns 0x00000000 (0000ms, 0303ms total)
T1C88 001:550 JLINK_ReadReg(R12)  returns 0x01010101 (0000ms, 0303ms total)
T1C88 001:550 JLINK_ReadReg(R13 (SP))  returns 0x200031F8 (0000ms, 0303ms total)
T1C88 001:550 JLINK_ReadReg(R14)  returns 0x08000237 (0000ms, 0303ms total)
T1C88 001:550 JLINK_ReadReg(R15 (PC))  returns 0x08001890 (0000ms, 0303ms total)
T1C88 001:550 JLINK_ReadReg(XPSR)  returns 0x61000000 (0000ms, 0303ms total)
T1C88 001:550 JLINK_ReadReg(MSP)  returns 0x200031F8 (0000ms, 0303ms total)
T1C88 001:550 JLINK_ReadReg(PSP)  returns 0x00000000 (0000ms, 0303ms total)
T1C88 001:550 JLINK_ReadReg(CFBP)  returns 0x04000000 (0000ms, 0303ms total)
T1C88 001:550 JLINK_ReadReg(FPSCR)  returns 0x03000000 (0004ms, 0307ms total)
T1C88 001:555 JLINK_ReadReg(FPS0)  returns 0x00000000 (0000ms, 0307ms total)
T1C88 001:555 JLINK_ReadReg(FPS1)  returns 0x00000000 (0000ms, 0307ms total)
T1C88 001:555 JLINK_ReadReg(FPS2)  returns 0x00000000 (0000ms, 0307ms total)
T1C88 001:555 JLINK_ReadReg(FPS3)  returns 0x00000000 (0000ms, 0307ms total)
T1C88 001:555 JLINK_ReadReg(FPS4)  returns 0x00000000 (0000ms, 0307ms total)
T1C88 001:555 JLINK_ReadReg(FPS5)  returns 0x00000000 (0000ms, 0307ms total)
T1C88 001:555 JLINK_ReadReg(FPS6)  returns 0x00000000 (0000ms, 0307ms total)
T1C88 001:555 JLINK_ReadReg(FPS7)  returns 0x00000000 (0000ms, 0307ms total)
T1C88 001:555 JLINK_ReadReg(FPS8)  returns 0x00000000 (0000ms, 0307ms total)
T1C88 001:555 JLINK_ReadReg(FPS9)  returns 0x00000000 (0000ms, 0307ms total)
T1C88 001:555 JLINK_ReadReg(FPS10)  returns 0x00000000 (0000ms, 0307ms total)
T1C88 001:555 JLINK_ReadReg(FPS11)  returns 0x00000000 (0000ms, 0307ms total)
T1C88 001:555 JLINK_ReadReg(FPS12)  returns 0x00000000 (0000ms, 0307ms total)
T1C88 001:555 JLINK_ReadReg(FPS13)  returns 0x00000000 (0000ms, 0307ms total)
T1C88 001:555 JLINK_ReadReg(FPS14)  returns 0x00000000 (0000ms, 0307ms total)
T1C88 001:555 JLINK_ReadReg(FPS15)  returns 0x00000000 (0000ms, 0307ms total)
T1C88 001:555 JLINK_ReadReg(FPS16)  returns 0x00000000 (0000ms, 0307ms total)
T1C88 001:555 JLINK_ReadReg(FPS17)  returns 0x00000000 (0000ms, 0307ms total)
T1C88 001:555 JLINK_ReadReg(FPS18)  returns 0x00000000 (0000ms, 0307ms total)
T1C88 001:555 JLINK_ReadReg(FPS19)  returns 0x00000000 (0000ms, 0307ms total)
T1C88 001:555 JLINK_ReadReg(FPS20)  returns 0x00000000 (0000ms, 0307ms total)
T1C88 001:555 JLINK_ReadReg(FPS21)  returns 0x00000000 (0000ms, 0307ms total)
T1C88 001:555 JLINK_ReadReg(FPS22)  returns 0x00000000 (0000ms, 0307ms total)
T1C88 001:555 JLINK_ReadReg(FPS23)  returns 0x00000000 (0000ms, 0307ms total)
T1C88 001:555 JLINK_ReadReg(FPS24)  returns 0x00000000 (0000ms, 0307ms total)
T1C88 001:555 JLINK_ReadReg(FPS25)  returns 0x00000000 (0000ms, 0307ms total)
T1C88 001:555 JLINK_ReadReg(FPS26)  returns 0x00000000 (0000ms, 0307ms total)
T1C88 001:555 JLINK_ReadReg(FPS27)  returns 0x00000000 (0000ms, 0307ms total)
T1C88 001:555 JLINK_ReadReg(FPS28)  returns 0x00000000 (0000ms, 0307ms total)
T1C88 001:555 JLINK_ReadReg(FPS29)  returns 0x00000000 (0000ms, 0307ms total)
T1C88 001:555 JLINK_ReadReg(FPS30)  returns 0x00000000 (0000ms, 0307ms total)
T1C88 001:555 JLINK_ReadReg(FPS31)  returns 0x00000000 (0000ms, 0307ms total)
T1EA8 001:556 JLINK_ReadMem (0x00000000, 0x0004 Bytes, ...) -- CPU_ReadMem(4 bytes @ 0x00000004) -- CPU_ReadMem(64 bytes @ 0x08000000) -- Updating C cache (64 bytes @ 0x08000000) -- Read from C cache (4 bytes @ 0x08000000) - Data: F8 31 00 20  returns 0x00 (0001ms, 0308ms total)
T1EA8 001:557 JLINK_ReadMem (0x20000000, 0x0004 Bytes, ...) -- CPU_ReadMem(64 bytes @ 0x20000000) -- Updating C cache (64 bytes @ 0x20000000) -- Read from C cache (4 bytes @ 0x20000000) - Data: 00 00 00 00  returns 0x00 (0001ms, 0309ms total)
T1EA8 001:558 JLINK_ReadMem (0xE0042000, 0x000C Bytes, ...) -- CPU_ReadMem(12 bytes @ 0xE0042000) - Data: 13 64 01 10 27 00 00 00 00 18 00 00  returns 0x00 (0000ms, 0309ms total)
T1EA8 001:558 JLINK_ReadMem (0xE004200C, 0x0004 Bytes, ...) - Data: 00 00 00 00  returns 0x00 (0000ms, 0309ms total)
T1EA8 001:559 JLINK_ReadMem (0x40020000, 0x0014 Bytes, ...) -- CPU_ReadMem(20 bytes @ 0x40020000) - Data: 00 00 00 A8 00 00 00 A8 00 00 00 A8 00 00 00 A8 ...  returns 0x00 (0000ms, 0309ms total)
T1EA8 001:559 JLINK_ReadMem (0x40020014, 0x0004 Bytes, ...) -- CPU_ReadMem(4 bytes @ 0x40020014) - Data: 00 00 00 A8  returns 0x00 (0000ms, 0309ms total)
T1EA8 001:559 JLINK_ReadMem (0x4002001C, 0x0008 Bytes, ...) -- CPU_ReadMem(8 bytes @ 0x4002001C) - Data: 00 00 00 A8 00 00 00 A8  returns 0x00 (0001ms, 0310ms total)
T1EA8 001:560 JLINK_ReadMem (0x40020024, 0x0004 Bytes, ...) -- CPU_ReadMem(4 bytes @ 0x40020024) - Data: 00 00 00 A8  returns 0x00 (0000ms, 0310ms total)
T1EA8 001:560 JLINK_ReadMem (0x40013C00, 0x0014 Bytes, ...) -- CPU_ReadMem(20 bytes @ 0x40013C00) - Data: 00 00 00 00 00 00 00 00 00 00 00 00 00 00 00 00 ...  returns 0x00 (0001ms, 0311ms total)
T1EA8 001:561 JLINK_ReadMem (0x40013C14, 0x0004 Bytes, ...) -- CPU_ReadMem(4 bytes @ 0x40013C14) - Data: 00 00 00 00  returns 0x00 (0000ms, 0311ms total)
T1EA8 001:561 JLINK_ReadMem (0x40012000, 0x004C Bytes, ...) -- CPU_ReadMem(76 bytes @ 0x40012000) - Data: 00 00 00 00 00 00 00 00 00 00 00 00 00 00 00 00 ...  returns 0x00 (0001ms, 0312ms total)
T1EA8 001:562 JLINK_ReadMem (0x4001204C, 0x0004 Bytes, ...) -- CPU_ReadMem(4 bytes @ 0x4001204C) - Data: 00 00 00 00  returns 0x00 (0001ms, 0313ms total)
T1EA8 001:563 JLINK_ReadMem (0x40023800, 0x0018 Bytes, ...) -- CPU_ReadMem(24 bytes @ 0x40023800) - Data: 83 89 00 00 10 30 00 24 00 00 00 00 00 00 00 00 ...  returns 0x00 (0000ms, 0313ms total)
T1EA8 001:563 JLINK_ReadMem (0x40023818, 0x0004 Bytes, ...) -- CPU_ReadMem(4 bytes @ 0x40023818) - Data: 00 00 00 00  returns 0x00 (0001ms, 0314ms total)
T1EA8 001:564 JLINK_ReadMem (0x40023820, 0x0004 Bytes, ...) -- CPU_ReadMem(4 bytes @ 0x40023820) - Data: 00 00 00 00  returns 0x00 (0000ms, 0314ms total)
T1EA8 001:564 JLINK_ReadMem (0x40023824, 0x0004 Bytes, ...) -- CPU_ReadMem(4 bytes @ 0x40023824) - Data: 00 00 00 00  returns 0x00 (0000ms, 0314ms total)
T1EA8 001:564 JLINK_ReadMem (0x40023830, 0x0008 Bytes, ...) -- CPU_ReadMem(8 bytes @ 0x40023830) - Data: 00 00 10 00 00 00 00 00  returns 0x00 (0001ms, 0315ms total)
T1EA8 001:565 JLINK_ReadMem (0x40023838, 0x0004 Bytes, ...) -- CPU_ReadMem(4 bytes @ 0x40023838) - Data: 00 00 00 00  returns 0x00 (0000ms, 0315ms total)
T1EA8 001:565 JLINK_ReadMem (0x40023840, 0x0004 Bytes, ...) -- CPU_ReadMem(4 bytes @ 0x40023840) - Data: 00 00 00 00  returns 0x00 (0000ms, 0315ms total)
T1EA8 001:565 JLINK_ReadMem (0x40023844, 0x0004 Bytes, ...) -- CPU_ReadMem(4 bytes @ 0x40023844) - Data: 00 00 00 00  returns 0x00 (0001ms, 0316ms total)
T1EA8 001:566 JLINK_ReadMem (0x40023850, 0x0008 Bytes, ...) -- CPU_ReadMem(8 bytes @ 0x40023850) - Data: FF 91 67 7E F1 00 00 00  returns 0x00 (0000ms, 0316ms total)
T1EA8 001:566 JLINK_ReadMem (0x40023858, 0x0004 Bytes, ...) -- CPU_ReadMem(4 bytes @ 0x40023858) - Data: 01 00 00 00  returns 0x00 (0000ms, 0316ms total)
T1EA8 001:566 JLINK_ReadMem (0x40023860, 0x0004 Bytes, ...) -- CPU_ReadMem(4 bytes @ 0x40023860) - Data: FF C9 FE 36  returns 0x00 (0001ms, 0317ms total)
T1EA8 001:567 JLINK_ReadMem (0x40023864, 0x0004 Bytes, ...) -- CPU_ReadMem(4 bytes @ 0x40023864) - Data: 33 5F 07 00  returns 0x00 (0000ms, 0317ms total)
T1EA8 001:567 JLINK_ReadMem (0x40023870, 0x0004 Bytes, ...) -- CPU_ReadMem(4 bytes @ 0x40023870) - Data: 00 00 00 00  returns 0x00 (0001ms, 0318ms total)
T1EA8 001:568 JLINK_ReadMem (0x40023874, 0x0004 Bytes, ...) -- CPU_ReadMem(4 bytes @ 0x40023874) - Data: 00 00 00 14  returns 0x00 (0000ms, 0318ms total)
T1EA8 001:568 JLINK_ReadMem (0x40023880, 0x0004 Bytes, ...) -- CPU_ReadMem(4 bytes @ 0x40023880) - Data: 00 00 00 00  returns 0x00 (0000ms, 0318ms total)
T1EA8 001:568 JLINK_ReadMem (0x40023884, 0x0004 Bytes, ...) -- CPU_ReadMem(4 bytes @ 0x40023884) - Data: 00 30 00 20  returns 0x00 (0001ms, 0319ms total)
T1EA8 001:569 JLINK_ReadMem (0xE000E004, 0x0004 Bytes, ...) -- CPU_ReadMem(4 bytes @ 0xE000E004) - Data: 02 00 00 00  returns 0x00 (0000ms, 0319ms total)
T1EA8 001:569 JLINK_ReadMem (0xE000E100, 0x0008 Bytes, ...) -- CPU_ReadMem(8 bytes @ 0xE000E100) - Data: 00 00 00 00 00 00 00 00  returns 0x00 (0001ms, 0320ms total)
T1EA8 001:570 JLINK_ReadMem (0xE000E108, 0x0004 Bytes, ...) -- CPU_ReadMem(4 bytes @ 0xE000E108) - Data: 00 00 00 00  returns 0x00 (0000ms, 0320ms total)
T1EA8 001:570 JLINK_ReadMem (0xE000E180, 0x0008 Bytes, ...) -- CPU_ReadMem(8 bytes @ 0xE000E180) - Data: 00 00 00 00 00 00 00 00  returns 0x00 (0000ms, 0320ms total)
T1EA8 001:570 JLINK_ReadMem (0xE000E188, 0x0004 Bytes, ...) -- CPU_ReadMem(4 bytes @ 0xE000E188) - Data: 00 00 00 00  returns 0x00 (0001ms, 0321ms total)
T1EA8 001:571 JLINK_ReadMem (0xE000E200, 0x0008 Bytes, ...) -- CPU_ReadMem(8 bytes @ 0xE000E200) - Data: 00 00 00 00 00 00 00 00  returns 0x00 (0000ms, 0321ms total)
T1EA8 001:571 JLINK_ReadMem (0xE000E208, 0x0004 Bytes, ...) -- CPU_ReadMem(4 bytes @ 0xE000E208) - Data: 00 00 00 00  returns 0x00 (0000ms, 0321ms total)
T1EA8 001:571 JLINK_ReadMem (0xE000E280, 0x0008 Bytes, ...) -- CPU_ReadMem(8 bytes @ 0xE000E280) - Data: 00 00 00 00 00 00 00 00  returns 0x00 (0001ms, 0322ms total)
T1EA8 001:572 JLINK_ReadMem (0xE000E288, 0x0004 Bytes, ...) -- CPU_ReadMem(4 bytes @ 0xE000E288) - Data: 00 00 00 00  returns 0x00 (0000ms, 0322ms total)
T1EA8 001:572 JLINK_ReadMem (0xE000E300, 0x0008 Bytes, ...) -- CPU_ReadMem(8 bytes @ 0xE000E300) - Data: 00 00 00 00 00 00 00 00  returns 0x00 (0000ms, 0322ms total)
T1EA8 001:572 JLINK_ReadMem (0xE000E308, 0x0004 Bytes, ...) -- CPU_ReadMem(4 bytes @ 0xE000E308) - Data: 00 00 00 00  returns 0x00 (0001ms, 0323ms total)
T1EA8 001:573 JLINK_ReadMem (0xE000E400, 0x004C Bytes, ...) -- CPU_ReadMem(76 bytes @ 0xE000E400) - Data: 00 00 00 00 00 00 00 00 00 00 00 00 00 00 00 00 ...  returns 0x00 (0001ms, 0324ms total)
T1EA8 001:574 JLINK_ReadMem (0xE000E44C, 0x0004 Bytes, ...) -- CPU_ReadMem(4 bytes @ 0xE000E44C) - Data: 00 00 00 00  returns 0x00 (0000ms, 0324ms total)
T1EA8 001:575 JLINK_ReadMem (0x08001790, 0x003C Bytes, ...) -- CPU_ReadMem(128 bytes @ 0x08001780) -- Updating C cache (128 bytes @ 0x08001780) -- Read from C cache (60 bytes @ 0x08001790) - Data: FC E7 01 20 FA E7 00 20 F8 E7 00 00 70 B5 04 46 ...  returns 0x00 (0002ms, 0326ms total)
T1EA8 001:577 JLINK_ReadMem (0x080017CC, 0x0034 Bytes, ...) -- Read from C cache (52 bytes @ 0x080017CC) - Data: 02 00 EB E7 0A A1 20 46 FE F7 64 FF 10 B9 48 F2 ...  returns 0x00 (0000ms, 0326ms total)
T1EA8 001:577 JLINK_ReadMem (0x08001800, 0x0008 Bytes, ...) -- CPU_ReadMem(64 bytes @ 0x08001800) -- Updating C cache (64 bytes @ 0x08001800) -- Read from C cache (8 bytes @ 0x08001800) - Data: 45 52 52 00 02 46 6F F4  returns 0x00 (0001ms, 0327ms total)
T1EA8 001:578 JLINK_ReadMem (0x08001808, 0x003C Bytes, ...) -- CPU_ReadMem(64 bytes @ 0x08001840) -- Updating C cache (64 bytes @ 0x08001840) -- Read from C cache (60 bytes @ 0x08001808) - Data: 00 40 10 44 20 B1 01 28 05 D0 02 28 09 D1 05 E0 ...  returns 0x00 (0000ms, 0327ms total)
T1EA8 001:578 JLINK_ReadMem (0x08001844, 0x003C Bytes, ...) -- Read from C cache (60 bytes @ 0x08001844) - Data: 01 28 06 D0 02 28 11 D1 0E E0 4F F0 FF 30 BD E8 ...  returns 0x00 (0001ms, 0328ms total)
T1EA8 001:579 JLINK_ReadMem (0x08001880, 0x003C Bytes, ...) -- CPU_ReadMem(64 bytes @ 0x08001880) -- Updating C cache (64 bytes @ 0x08001880) -- Read from C cache (60 bytes @ 0x08001880) - Data: 52 1E 8A 60 4A 68 C0 B2 53 1C 4B 60 10 70 70 47 ...  returns 0x00 (0000ms, 0328ms total)
T1EA8 001:580 JLINK_ReadMem (0x080018BC, 0x003C Bytes, ...) -- CPU_ReadMem(64 bytes @ 0x080018C0) -- Updating C cache (64 bytes @ 0x080018C0) -- Read from C cache (60 bytes @ 0x080018BC) - Data: 4C F6 CC 40 F6 49 09 68 08 60 F6 48 00 68 00 6B ...  returns 0x00 (0000ms, 0328ms total)
T1C88 006:726 JLINK_ReadMemU32(0xE0001004, 0x0001 Items, ...) -- CPU_ReadMem(4 bytes @ 0xE0001004) - Data: A0 22 00 00  returns 0x01 (0000ms, 0328ms total)
T1C88 006:726 JLINK_WriteU32(0xE0001004, 0x000003FF)  returns 0x00 (0000ms, 0328ms total)
T1C88 006:726 JLINK_WriteU32(0xE0001000, 0x00410A1F)  returns 0x00 (0000ms, 0328ms total)
T1C88 006:726 JLINK_WriteU32(0xE0000E80, 0x0001000F)  returns 0x00 (0000ms, 0328ms total)
T1C88 006:726 JLINK_SWO_Control(JLINKARM_SWO_CMD_GET_NUM_BYTES, ...)  returns 0x00 (0000ms, 0328ms total)
T1C88 006:726 JLINK_Go() -- CPU_WriteMem(4 bytes @ 0xE0001000) -- CPU_ReadMem(4 bytes @ 0xE0001000) -- CPU_WriteMem(4 bytes @ 0xE0000E80) -- CPU_WriteMem(4 bytes @ 0xE0002008) -- CPU_WriteMem(4 bytes @ 0xE0001004) (0002ms, 0330ms total)
T1C88 006:729 JLINK_WriteU32(0xE0001000, 0x00010A1F) -- CPU is running -- CPU_WriteMem(4 bytes @ 0xE0001000)  returns 0x00 (0000ms, 0330ms total)
T1C88 006:830 JLINK_SWO_Read(..., Offset = 0x00, NumBytes = 0x400000) - Data: 00 00 00 00 00 00 00 00 00 00 00 00 01 2A C0 BE ...  NumBytesRead = 0x902 (0000ms, 0330ms total)
T1C88 006:832 JLINK_SWO_Control(JLINKARM_SWO_CMD_FLUSH, ...)  returns 0x00 (0000ms, 0330ms total)
T1C88 006:832 JLINK_IsHalted()  returns FALSE (0001ms, 0331ms total)
T1C88 006:934 JLINK_SWO_Read(..., Offset = 0x00, NumBytes = 0x400000) - Data: 0E 0F 10 C0 87 9F 0A 0E 0F 20 C0 AF 01 0E 00 30 ...  NumBytesRead = 0x7D9 (0000ms, 0330ms total)
T1C88 006:936 JLINK_SWO_Control(JLINKARM_SWO_CMD_FLUSH, ...)  returns 0x00 (0000ms, 0330ms total)
T1C88 006:936 JLINK_IsHalted()  returns FALSE (0000ms, 0330ms total)
T1C88 007:037 JLINK_SWO_Read(..., Offset = 0x00, NumBytes = 0x400000) - Data: 0E 0F 10 C0 87 9F 0A 0E 0F 20 C0 AF 01 0E 00 30 ...  NumBytesRead = 0x7C7 (0000ms, 0330ms total)
T1C88 007:039 JLINK_SWO_Control(JLINKARM_SWO_CMD_FLUSH, ...)  returns 0x00 (0000ms, 0330ms total)
T1C88 007:039 JLINK_IsHalted()  returns FALSE (0000ms, 0330ms total)
T1C88 007:140 JLINK_SWO_Read(..., Offset = 0x00, NumBytes = 0x400000) - Data: 0E 0F 10 C0 87 9F 0A 0E 0F 20 C0 AF 01 0E 00 30 ...  NumBytesRead = 0x7BB (0000ms, 0330ms total)
T1C88 007:142 JLINK_SWO_Control(JLINKARM_SWO_CMD_FLUSH, ...)  returns 0x00 (0000ms, 0330ms total)
T1C88 007:142 JLINK_IsHalted()  returns FALSE (0000ms, 0330ms total)
T1C88 007:243 JLINK_SWO_Read(..., Offset = 0x00, NumBytes = 0x400000) - Data: 0E 0F 10 C0 87 9F 0A 0E 0F 20 C0 AF 01 0E 00 30 ...  NumBytesRead = 0x7C7 (0000ms, 0330ms total)
T1C88 007:245 JLINK_SWO_Control(JLINKARM_SWO_CMD_FLUSH, ...)  returns 0x00 (0000ms, 0330ms total)
T1C88 007:245 JLINK_ReadMemU32(0xE0001004, 0x0001 Items, ...) -- CPU_ReadMem(4 bytes @ 0xE0001004) - Data: 2A 4C 2C 05  returns 0x01 (0000ms, 0330ms total)
T1EA8 007:246 JLINK_ReadMem (0x20000000, 0x0004 Bytes, ...) -- CPU_ReadMem(4 bytes @ 0x20000000) - Data: FF FF FF FF  returns 0x00 (0000ms, 0330ms total)
T1EA8 007:247 JLINK_ReadMem (0xE0042000, 0x000C Bytes, ...) -- CPU_ReadMem(12 bytes @ 0xE0042000) - Data: 13 64 01 10 27 00 00 00 00 18 00 00  returns 0x00 (0001ms, 0331ms total)
T1EA8 007:248 JLINK_ReadMem (0xE004200C, 0x0004 Bytes, ...) - Data: 00 00 00 00  returns 0x00 (0000ms, 0331ms total)
T1EA8 007:248 JLINK_ReadMem (0x40020000, 0x0014 Bytes, ...) -- CPU_ReadMem(20 bytes @ 0x40020000) - Data: FF 00 00 A8 00 00 00 00 00 00 00 0C 00 00 00 64 ...  returns 0x00 (0000ms, 0331ms total)
T1EA8 007:248 JLINK_ReadMem (0x40020014, 0x0004 Bytes, ...) -- CPU_ReadMem(4 bytes @ 0x40020014) - Data: 00 00 00 00  returns 0x00 (0001ms, 0332ms total)
T1EA8 007:249 JLINK_ReadMem (0x4002001C, 0x0008 Bytes, ...) -- CPU_ReadMem(8 bytes @ 0x4002001C) - Data: 00 00 00 00 00 00 00 00  returns 0x00 (0000ms, 0332ms total)
T1EA8 007:249 JLINK_ReadMem (0x40020024, 0x0004 Bytes, ...) -- CPU_ReadMem(4 bytes @ 0x40020024) - Data: 00 00 00 00  returns 0x00 (0001ms, 0333ms total)
T1EA8 007:250 JLINK_ReadMem (0x40013C00, 0x0014 Bytes, ...) -- CPU_ReadMem(20 bytes @ 0x40013C00) - Data: 00 00 00 00 00 00 00 00 00 00 00 00 00 00 00 00 ...  returns 0x00 (0001ms, 0334ms total)
T1EA8 007:251 JLINK_ReadMem (0x40013C14, 0x0004 Bytes, ...) -- CPU_ReadMem(4 bytes @ 0x40013C14) - Data: 00 00 00 00  returns 0x00 (0000ms, 0334ms total)
T1EA8 007:251 JLINK_ReadMem (0x40012000, 0x004C Bytes, ...) -- CPU_ReadMem(76 bytes @ 0x40012000) - Data: 00 00 00 00 80 01 00 00 01 00 00 00 00 00 00 00 ...  returns 0x00 (0001ms, 0335ms total)
T1EA8 007:253 JLINK_ReadMem (0x4001204C, 0x0004 Bytes, ...) -- CPU_ReadMem(4 bytes @ 0x4001204C) - Data: 00 00 00 00  returns 0x00 (0000ms, 0335ms total)
T1EA8 007:263 JLINK_ReadMem (0x40023800, 0x0018 Bytes, ...) -- CPU_ReadMem(24 bytes @ 0x40023800) - Data: 83 89 03 03 08 54 40 27 0A 94 00 00 00 00 00 00 ...  returns 0x00 (0000ms, 0335ms total)
T1EA8 007:263 JLINK_ReadMem (0x40023818, 0x0004 Bytes, ...) -- CPU_ReadMem(4 bytes @ 0x40023818) - Data: 00 00 00 00  returns 0x00 (0001ms, 0336ms total)
T1EA8 007:264 JLINK_ReadMem (0x40023820, 0x0004 Bytes, ...) -- CPU_ReadMem(4 bytes @ 0x40023820) - Data: 00 00 00 00  returns 0x00 (0000ms, 0336ms total)
T1EA8 007:264 JLINK_ReadMem (0x40023824, 0x0004 Bytes, ...) -- CPU_ReadMem(4 bytes @ 0x40023824) - Data: 00 00 00 00  returns 0x00 (0000ms, 0336ms total)
T1EA8 007:264 JLINK_ReadMem (0x40023830, 0x0008 Bytes, ...) -- CPU_ReadMem(8 bytes @ 0x40023830) - Data: 0B 00 10 00 00 00 00 00  returns 0x00 (0001ms, 0337ms total)
T1EA8 007:265 JLINK_ReadMem (0x40023838, 0x0004 Bytes, ...) -- CPU_ReadMem(4 bytes @ 0x40023838) - Data: 00 00 00 00  returns 0x00 (0000ms, 0337ms total)
T1EA8 007:265 JLINK_ReadMem (0x40023840, 0x0004 Bytes, ...) -- CPU_ReadMem(4 bytes @ 0x40023840) - Data: 04 00 00 10  returns 0x00 (0001ms, 0338ms total)
T1EA8 007:266 JLINK_ReadMem (0x40023844, 0x0004 Bytes, ...) -- CPU_ReadMem(4 bytes @ 0x40023844) - Data: 00 01 00 00  returns 0x00 (0000ms, 0338ms total)
T1EA8 007:266 JLINK_ReadMem (0x40023850, 0x0008 Bytes, ...) -- CPU_ReadMem(8 bytes @ 0x40023850) - Data: FF 91 67 7E F1 00 00 00  returns 0x00 (0000ms, 0338ms total)
T1EA8 007:266 JLINK_ReadMem (0x40023858, 0x0004 Bytes, ...) -- CPU_ReadMem(4 bytes @ 0x40023858) - Data: 01 00 00 00  returns 0x00 (0001ms, 0339ms total)
T1EA8 007:267 JLINK_ReadMem (0x40023860, 0x0004 Bytes, ...) -- CPU_ReadMem(4 bytes @ 0x40023860) - Data: FF C9 FE 36  returns 0x00 (0000ms, 0339ms total)
T1EA8 007:267 JLINK_ReadMem (0x40023864, 0x0004 Bytes, ...) -- CPU_ReadMem(4 bytes @ 0x40023864) - Data: 33 5F 07 00  returns 0x00 (0000ms, 0339ms total)
T1EA8 007:267 JLINK_ReadMem (0x40023870, 0x0004 Bytes, ...) -- CPU_ReadMem(4 bytes @ 0x40023870) - Data: 00 00 00 00  returns 0x00 (0001ms, 0340ms total)
T1EA8 007:268 JLINK_ReadMem (0x40023874, 0x0004 Bytes, ...) -- CPU_ReadMem(4 bytes @ 0x40023874) - Data: 02 00 00 14  returns 0x00 (0000ms, 0340ms total)
T1EA8 007:268 JLINK_ReadMem (0x40023880, 0x0004 Bytes, ...) -- CPU_ReadMem(4 bytes @ 0x40023880) - Data: 00 00 00 00  returns 0x00 (0001ms, 0341ms total)
T1EA8 007:269 JLINK_ReadMem (0x40023884, 0x0004 Bytes, ...) -- CPU_ReadMem(4 bytes @ 0x40023884) - Data: 00 30 00 20  returns 0x00 (0000ms, 0341ms total)
T1EA8 007:270 JLINK_ReadMem (0xE000E004, 0x0004 Bytes, ...) -- CPU_ReadMem(4 bytes @ 0xE000E004) - Data: 02 00 00 00  returns 0x00 (0000ms, 0341ms total)
T1EA8 007:270 JLINK_ReadMem (0xE000E100, 0x0008 Bytes, ...) -- CPU_ReadMem(8 bytes @ 0xE000E100) - Data: 00 00 04 00 00 00 00 00  returns 0x00 (0000ms, 0341ms total)
T1EA8 007:270 JLINK_ReadMem (0xE000E108, 0x0004 Bytes, ...) -- CPU_ReadMem(4 bytes @ 0xE000E108) - Data: 00 00 00 00  returns 0x00 (0001ms, 0342ms total)
T1EA8 007:271 JLINK_ReadMem (0xE000E180, 0x0008 Bytes, ...) -- CPU_ReadMem(8 bytes @ 0xE000E180) - Data: 00 00 04 00 00 00 00 00  returns 0x00 (0000ms, 0342ms total)
T1EA8 007:271 JLINK_ReadMem (0xE000E188, 0x0004 Bytes, ...) -- CPU_ReadMem(4 bytes @ 0xE000E188) - Data: 00 00 00 00  returns 0x00 (0001ms, 0343ms total)
T1EA8 007:272 JLINK_ReadMem (0xE000E200, 0x0008 Bytes, ...) -- CPU_ReadMem(8 bytes @ 0xE000E200) - Data: 00 00 00 00 00 00 00 00  returns 0x00 (0000ms, 0343ms total)
T1EA8 007:272 JLINK_ReadMem (0xE000E208, 0x0004 Bytes, ...) -- CPU_ReadMem(4 bytes @ 0xE000E208) - Data: 00 00 00 00  returns 0x00 (0000ms, 0343ms total)
T1EA8 007:272 JLINK_ReadMem (0xE000E280, 0x0008 Bytes, ...) -- CPU_ReadMem(8 bytes @ 0xE000E280) - Data: 00 00 00 00 00 00 00 00  returns 0x00 (0001ms, 0344ms total)
T1EA8 007:273 JLINK_ReadMem (0xE000E288, 0x0004 Bytes, ...) -- CPU_ReadMem(4 bytes @ 0xE000E288) - Data: 00 00 00 00  returns 0x00 (0000ms, 0344ms total)
T1EA8 007:273 JLINK_ReadMem (0xE000E300, 0x0008 Bytes, ...) -- CPU_ReadMem(8 bytes @ 0xE000E300) - Data: 00 00 00 00 00 00 00 00  returns 0x00 (0001ms, 0345ms total)
T1EA8 007:274 JLINK_ReadMem (0xE000E308, 0x0004 Bytes, ...) -- CPU_ReadMem(4 bytes @ 0xE000E308) - Data: 00 00 00 00  returns 0x00 (0000ms, 0345ms total)
T1EA8 007:274 JLINK_ReadMem (0xE000E400, 0x004C Bytes, ...) -- CPU_ReadMem(76 bytes @ 0xE000E400) - Data: 00 00 00 00 00 00 00 00 00 00 00 00 00 00 00 00 ...  returns 0x00 (0001ms, 0346ms total)
T1EA8 007:275 JLINK_ReadMem (0xE000E44C, 0x0004 Bytes, ...) -- CPU_ReadMem(4 bytes @ 0xE000E44C) - Data: 00 00 00 00  returns 0x00 (0001ms, 0347ms total)
T1C88 007:276 JLINK_IsHalted()  returns FALSE (0000ms, 0347ms total)
T1C88 007:378 JLINK_SWO_Read(..., Offset = 0x00, NumBytes = 0x400000) - Data: 0E 0F 10 C0 87 9F 0A 0E 0F 20 C0 AF 01 0E 00 30 ...  NumBytesRead = 0xA54 (0000ms, 0347ms total)
T1C88 007:380 JLINK_SWO_Control(JLINKARM_SWO_CMD_FLUSH, ...)  returns 0x00 (0000ms, 0347ms total)
T1C88 007:380 JLINK_IsHalted()  returns FALSE (0000ms, 0347ms total)
T1C88 007:481 JLINK_SWO_Read(..., Offset = 0x00, NumBytes = 0x400000) - Data: 0E 0F 10 C0 ED B8 09 0E 0F 20 C0 F1 01 0E 00 30 ...  NumBytesRead = 0x7B5 (0000ms, 0347ms total)
T1C88 007:483 JLINK_SWO_Control(JLINKARM_SWO_CMD_FLUSH, ...)  returns 0x00 (0000ms, 0347ms total)
T1C88 007:483 JLINK_IsHalted()  returns FALSE (0000ms, 0347ms total)
T1C88 007:584 JLINK_SWO_Read(..., Offset = 0x00, NumBytes = 0x400000) - Data: 0E 0F 10 C0 87 9F 0A 0E 0F 20 C0 AF 01 0E 00 30 ...  NumBytesRead = 0x7CD (0000ms, 0347ms total)
T1C88 007:586 JLINK_SWO_Control(JLINKARM_SWO_CMD_FLUSH, ...)  returns 0x00 (0000ms, 0347ms total)
T1C88 007:586 JLINK_IsHalted()  returns FALSE (0000ms, 0347ms total)
T1C88 007:688 JLINK_SWO_Read(..., Offset = 0x00, NumBytes = 0x400000) - Data: 0E 0F 10 C0 87 9F 0A 0E 0F 20 C0 AF 01 0E 00 30 ...  NumBytesRead = 0x7D9 (0000ms, 0347ms total)
T1C88 007:690 JLINK_SWO_Control(JLINKARM_SWO_CMD_FLUSH, ...)  returns 0x00 (0000ms, 0347ms total)
T1C88 007:690 JLINK_IsHalted()  returns FALSE (0000ms, 0347ms total)
T1C88 007:791 JLINK_SWO_Read(..., Offset = 0x00, NumBytes = 0x400000) - Data: 0E 0F 10 C0 87 9F 0A 0E 0F 20 C0 AF 01 0E 00 30 ...  NumBytesRead = 0x7C2 (0000ms, 0347ms total)
T1C88 007:793 JLINK_SWO_Control(JLINKARM_SWO_CMD_FLUSH, ...)  returns 0x00 (0000ms, 0347ms total)
T1C88 007:793 JLINK_ReadMemU32(0xE0001004, 0x0001 Items, ...) - Data: 2A 4C 2C 05  returns 0x01 (0000ms, 0347ms total)
T1EA8 007:793 JLINK_ReadMem (0x20000000, 0x0004 Bytes, ...) -- CPU_ReadMem(4 bytes @ 0x20000000) - Data: FF FF FF FF  returns 0x00 (0000ms, 0347ms total)
T1EA8 007:794 JLINK_ReadMem (0xE0042000, 0x000C Bytes, ...) -- CPU_ReadMem(12 bytes @ 0xE0042000) - Data: 13 64 01 10 27 00 00 00 00 18 00 00  returns 0x00 (0001ms, 0348ms total)
T1EA8 007:795 JLINK_ReadMem (0xE004200C, 0x0004 Bytes, ...) - Data: 00 00 00 00  returns 0x00 (0000ms, 0348ms total)
T1EA8 007:795 JLINK_ReadMem (0x40020000, 0x0014 Bytes, ...) -- CPU_ReadMem(20 bytes @ 0x40020000) - Data: FF 00 00 A8 00 00 00 00 00 00 00 0C 00 00 00 64 ...  returns 0x00 (0000ms, 0348ms total)
T1EA8 007:795 JLINK_ReadMem (0x40020014, 0x0004 Bytes, ...) -- CPU_ReadMem(4 bytes @ 0x40020014) - Data: 00 00 00 00  returns 0x00 (0001ms, 0349ms total)
T1EA8 007:796 JLINK_ReadMem (0x4002001C, 0x0008 Bytes, ...) -- CPU_ReadMem(8 bytes @ 0x4002001C) - Data: 00 00 00 00 00 00 00 00  returns 0x00 (0000ms, 0349ms total)
T1EA8 007:796 JLINK_ReadMem (0x40020024, 0x0004 Bytes, ...) -- CPU_ReadMem(4 bytes @ 0x40020024) - Data: 00 00 00 00  returns 0x00 (0001ms, 0350ms total)
T1EA8 007:797 JLINK_ReadMem (0x40013C00, 0x0014 Bytes, ...) -- CPU_ReadMem(20 bytes @ 0x40013C00) - Data: 00 00 00 00 00 00 00 00 00 00 00 00 00 00 00 00 ...  returns 0x00 (0000ms, 0350ms total)
T1EA8 007:797 JLINK_ReadMem (0x40013C14, 0x0004 Bytes, ...) -- CPU_ReadMem(4 bytes @ 0x40013C14) - Data: 00 00 00 00  returns 0x00 (0001ms, 0351ms total)
T1EA8 007:798 JLINK_ReadMem (0x40012000, 0x004C Bytes, ...) -- CPU_ReadMem(76 bytes @ 0x40012000) - Data: 00 00 00 00 80 01 00 00 01 00 00 00 00 00 00 00 ...  returns 0x00 (0001ms, 0352ms total)
T1EA8 007:799 JLINK_ReadMem (0x4001204C, 0x0004 Bytes, ...) -- CPU_ReadMem(4 bytes @ 0x4001204C) - Data: 00 00 00 00  returns 0x00 (0000ms, 0352ms total)
T1EA8 007:801 JLINK_ReadMem (0x40023800, 0x0018 Bytes, ...) -- CPU_ReadMem(24 bytes @ 0x40023800) - Data: 83 89 03 03 08 54 40 27 0A 94 00 00 00 00 00 00 ...  returns 0x00 (0001ms, 0353ms total)
T1EA8 007:802 JLINK_ReadMem (0x40023818, 0x0004 Bytes, ...) -- CPU_ReadMem(4 bytes @ 0x40023818) - Data: 00 00 00 00  returns 0x00 (0000ms, 0353ms total)
T1EA8 007:802 JLINK_ReadMem (0x40023820, 0x0004 Bytes, ...) -- CPU_ReadMem(4 bytes @ 0x40023820) - Data: 00 00 00 00  returns 0x00 (0001ms, 0354ms total)
T1EA8 007:803 JLINK_ReadMem (0x40023824, 0x0004 Bytes, ...) -- CPU_ReadMem(4 bytes @ 0x40023824) - Data: 00 00 00 00  returns 0x00 (0000ms, 0354ms total)
